T3DD4 000:003.229   SEGGER J-Link V7.64 Log File
T3DD4 000:003.314   DLL Compiled: Apr  1 2022 16:04:43
T3DD4 000:003.321   Logging started @ 2024-10-09 07:39
T3DD4 000:003.327 - 3.330ms
T3DD4 000:003.337 JLINK_SetWarnOutHandler(...)
T3DD4 000:003.344 - 0.010ms
T3DD4 000:003.351 JLINK_OpenEx(...)
T3DD4 000:005.412   Firmware: J-Link OB-STM32F103 V1 compiled Oct 30 2023 12:12:03
T3DD4 000:006.192   Firmware: J-Link OB-STM32F103 V1 compiled Oct 30 2023 12:12:03
T3DD4 000:028.620   Hardware: V1.00
T3DD4 000:028.659   S/N: 4294967295
T3DD4 000:028.669   OEM: SEGGER
T3DD4 000:028.678   Feature(s): None
T3DD4 000:031.628   USB speed mode: Full speed (12 MBit/s)
T3DD4 000:032.433   TELNET listener socket opened on port 19021
T3DD4 000:032.530   WEBSRV WEBSRV_Init(): Starting webserver thread(s)
T3DD4 000:032.692   WEBSRV Webserver running on local port 19080
T3DD4 000:041.422 - 38.099ms returns "O.K."
T3DD4 000:041.468 JLINK_GetEmuCaps()
T3DD4 000:041.475 - 0.011ms returns 0x98EA5A33
T3DD4 000:041.484 JLINK_TIF_GetAvailable(...)
T3DD4 000:041.991 - 0.548ms
T3DD4 000:042.046 JLINK_SetErrorOutHandler(...)
T3DD4 000:042.071 - 0.028ms
T3DD4 000:042.109 JLINK_ExecCommand("ProjectFile = "E:\02-Develop\STM32-Soft\MEMS_Probe_hw02_V0.2_fw-20240911-160MHz-PVD\JLinkSettings.ini"", ...). 
T3DD4 000:052.120   Device "STM32G474VE" selected.
T3DD4 000:052.315 - 10.211ms returns 0x00
T3DD4 000:054.052 JLINK_ExecCommand("Device = STM32G474VETx", ...). 
T3DD4 000:055.805   Device "STM32G474VE" selected.
T3DD4 000:055.990 - 1.929ms returns 0x00
T3DD4 000:056.001 JLINK_ExecCommand("DisableConnectionTimeout", ...). 
T3DD4 000:056.010 - 0.004ms returns 0x01
T3DD4 000:056.017 JLINK_GetHardwareVersion()
T3DD4 000:056.025 - 0.012ms returns 10000
T3DD4 000:056.038 JLINK_GetDLLVersion()
T3DD4 000:056.047 - 0.012ms returns 76400
T3DD4 000:056.055 JLINK_GetOEMString(...)
T3DD4 000:056.062 JLINK_GetFirmwareString(...)
T3DD4 000:056.068 - 0.009ms
T3DD4 000:061.152 JLINK_GetDLLVersion()
T3DD4 000:061.173 - 0.024ms returns 76400
T3DD4 000:061.180 JLINK_GetCompileDateTime()
T3DD4 000:061.186 - 0.009ms
T3DD4 000:062.413 JLINK_GetFirmwareString(...)
T3DD4 000:062.426 - 0.015ms
T3DD4 000:063.651 JLINK_GetHardwareVersion()
T3DD4 000:063.664 - 0.015ms returns 10000
T3DD4 000:064.913 JLINK_GetSN()
T3DD4 000:064.927 - 0.017ms returns -1
T3DD4 000:064.934 JLINK_GetOEMString(...)
T3DD4 000:066.120 JLINK_TIF_Select(JLINKARM_TIF_SWD)
T3DD4 000:068.582 - 2.490ms returns 0x00
T3DD4 000:068.622 JLINK_HasError()
T3DD4 000:068.639 JLINK_SetSpeed(1000)
T3DD4 000:069.256 - 0.625ms
T3DD4 000:069.273 JLINK_GetId()
T3DD4 000:071.605   InitTarget() start
T3DD4 000:071.623    J-Link Script File: Executing InitTarget()
T3DD4 000:111.645   InitTarget() end
T3DD4 000:115.770   Found SW-DP with ID 0x2BA01477
T3DD4 000:122.762   DPIDR: 0x2BA01477
T3DD4 000:125.674   CoreSight SoC-400 or earlier
T3DD4 000:128.905   Scanning AP map to find all available APs
T3DD4 000:133.019   AP[1]: Stopped AP scan as end of AP map has been reached
T3DD4 000:136.402   AP[0]: AHB-AP (IDR: 0x24770011)
T3DD4 000:139.424   Iterating through AP map to find AHB-AP to use
T3DD4 000:143.995   AP[0]: Core found
T3DD4 000:146.959   AP[0]: AHB-AP ROM base: 0xE00FF000
T3DD4 000:150.646   CPUID register: 0x410FC241. Implementer code: 0x41 (ARM)
T3DD4 000:155.791   Found Cortex-M4 r0p1, Little endian.
T3DD4 000:257.704   -- Max. mem block: 0x00002690
T3DD4 000:258.389   CPU_ReadMem(4 bytes @ 0xE000EDF0)
T3DD4 000:259.542   CPU_ReadMem(4 bytes @ 0xE0002000)
T3DD4 000:266.494   FPUnit: 6 code (BP) slots and 2 literal slots
T3DD4 000:266.522   CPU_ReadMem(4 bytes @ 0xE000EDFC)
T3DD4 000:267.601   CPU_WriteMem(4 bytes @ 0xE000EDFC)
T3DD4 000:268.642   CPU_ReadMem(4 bytes @ 0xE0001000)
T3DD4 000:269.565   CPU_WriteMem(4 bytes @ 0xE0001000)
T3DD4 000:270.464   CPU_ReadMem(4 bytes @ 0xE000ED88)
T3DD4 000:271.617   CPU_WriteMem(4 bytes @ 0xE000ED88)
T3DD4 000:272.596   CPU_ReadMem(4 bytes @ 0xE000ED88)
T3DD4 000:273.613   CPU_WriteMem(4 bytes @ 0xE000ED88)
T3DD4 000:276.705   CoreSight components:
T3DD4 000:278.296   ROMTbl[0] @ E00FF000
T3DD4 000:278.313   CPU_ReadMem(64 bytes @ 0xE00FF000)
T3DD4 000:279.871   CPU_ReadMem(32 bytes @ 0xE000EFE0)
T3DD4 000:282.858   [0][0]: E000E000 CID B105E00D PID 000BB00C SCS-M7
T3DD4 000:282.876   CPU_ReadMem(32 bytes @ 0xE0001FE0)
T3DD4 000:285.901   [0][1]: E0001000 CID B105E00D PID 003BB002 DWT
T3DD4 000:285.961   CPU_ReadMem(32 bytes @ 0xE0002FE0)
T3DD4 000:288.723   [0][2]: E0002000 CID B105E00D PID 002BB003 FPB
T3DD4 000:288.742   CPU_ReadMem(32 bytes @ 0xE0000FE0)
T3DD4 000:291.501   [0][3]: E0000000 CID B105E00D PID 003BB001 ITM
T3DD4 000:291.519   CPU_ReadMem(32 bytes @ 0xE0040FE0)
T3DD4 000:298.242   [0][4]: E0040000 CID B105900D PID 000BB9A1 TPIU
T3DD4 000:298.274   CPU_ReadMem(32 bytes @ 0xE0041FE0)
T3DD4 000:301.668   [0][5]: E0041000 CID B105900D PID 000BB925 ETM
T3DD4 000:302.308 - 233.048ms returns 0x2BA01477
T3DD4 000:302.333 JLINK_GetDLLVersion()
T3DD4 000:302.341 - 0.011ms returns 76400
T3DD4 000:302.349 JLINK_CORE_GetFound()
T3DD4 000:302.357 - 0.011ms returns 0xE0000FF
T3DD4 000:302.365 JLINK_GetDebugInfo(0x100 = JLINKARM_ROM_TABLE_ADDR_INDEX)
T3DD4 000:302.376   Value=0xE00FF000
T3DD4 000:302.385 - 0.022ms returns 0
T3DD4 000:303.964 JLINK_GetDebugInfo(0x100 = JLINKARM_ROM_TABLE_ADDR_INDEX)
T3DD4 000:303.975   Value=0xE00FF000
T3DD4 000:303.985 - 0.024ms returns 0
T3DD4 000:303.992 JLINK_GetDebugInfo(0x101 = JLINKARM_DEBUG_INFO_ETM_ADDR_INDEX)
T3DD4 000:303.998   Value=0xE0041000
T3DD4 000:304.007 - 0.018ms returns 0
T3DD4 000:304.018 JLINK_ReadMemEx(0xE0041FD0, 0x20 Bytes, Flags = 0x02000004)
T3DD4 000:304.039   CPU_ReadMem(32 bytes @ 0xE0041FD0)
T3DD4 000:305.218   Data:  04 00 00 00 00 00 00 00 00 00 00 00 00 00 00 00 ...
T3DD4 000:305.250 - 1.235ms returns 32 (0x20)
T3DD4 000:305.262 JLINK_GetDebugInfo(0x102 = JLINKARM_DEBUG_INFO_MTB_ADDR_INDEX)
T3DD4 000:305.277   Value=0x00000000
T3DD4 000:305.288 - 0.029ms returns 0
T3DD4 000:305.296 JLINK_GetDebugInfo(0x103 = JLINKARM_DEBUG_INFO_TPIU_ADDR_INDEX)
T3DD4 000:305.305   Value=0xE0040000
T3DD4 000:305.314 - 0.020ms returns 0
T3DD4 000:305.320 JLINK_GetDebugInfo(0x104 = JLINKARM_DEBUG_INFO_ITM_ADDR_INDEX)
T3DD4 000:305.327   Value=0xE0000000
T3DD4 000:305.335 - 0.017ms returns 0
T3DD4 000:305.342 JLINK_GetDebugInfo(0x105 = JLINKARM_DEBUG_INFO_DWT_ADDR_INDEX)
T3DD4 000:305.348   Value=0xE0001000
T3DD4 000:305.357 - 0.017ms returns 0
T3DD4 000:305.363 JLINK_GetDebugInfo(0x106 = JLINKARM_DEBUG_INFO_FPB_ADDR_INDEX)
T3DD4 000:305.370   Value=0xE0002000
T3DD4 000:305.378 - 0.017ms returns 0
T3DD4 000:305.385 JLINK_GetDebugInfo(0x107 = JLINKARM_DEBUG_INFO_NVIC_ADDR_INDEX)
T3DD4 000:305.391   Value=0xE000E000
T3DD4 000:305.400 - 0.017ms returns 0
T3DD4 000:305.406 JLINK_GetDebugInfo(0x10C = JLINKARM_DEBUG_INFO_DBG_ADDR_INDEX)
T3DD4 000:305.412   Value=0xE000EDF0
T3DD4 000:305.421 - 0.017ms returns 0
T3DD4 000:305.428 JLINK_GetDebugInfo(0x01 = Unknown)
T3DD4 000:305.434   Value=0x00000001
T3DD4 000:305.443 - 0.018ms returns 0
T3DD4 000:305.450 JLINK_ReadMemU32(0xE000ED00, 0x1 Items)
T3DD4 000:305.466   CPU_ReadMem(4 bytes @ 0xE000ED00)
T3DD4 000:306.897   Data:  41 C2 0F 41
T3DD4 000:306.912   Debug reg: CPUID
T3DD4 000:306.921 - 1.474ms returns 1 (0x1)
T3DD4 000:306.938 JLINK_GetDebugInfo(0x10F = JLINKARM_DEBUG_INFO_HAS_CORTEX_M_SECURITY_EXT_INDEX)
T3DD4 000:306.946   Value=0x00000000
T3DD4 000:306.957 - 0.023ms returns 0
T3DD4 000:306.967 JLINK_HasError()
T3DD4 000:306.974 JLINK_SetResetType(JLINKARM_CM3_RESET_TYPE_NORMAL)
T3DD4 000:306.980 - 0.009ms returns JLINKARM_CM3_RESET_TYPE_NORMAL
T3DD4 000:306.987 JLINK_Reset()
T3DD4 000:307.004   CPU is running
T3DD4 000:307.014   CPU_WriteMem(4 bytes @ 0xE000EDF0)
T3DD4 000:307.953   CPU is running
T3DD4 000:307.970   CPU_WriteMem(4 bytes @ 0xE000EDFC)
T3DD4 000:311.158   Reset: Halt core after reset via DEMCR.VC_CORERESET.
T3DD4 000:314.861   Reset: Reset device via AIRCR.SYSRESETREQ.
T3DD4 000:314.898   CPU is running
T3DD4 000:314.917   CPU_WriteMem(4 bytes @ 0xE000ED0C)
T3DD4 000:369.972   CPU_ReadMem(4 bytes @ 0xE000EDF0)
T3DD4 000:370.952   CPU_ReadMem(4 bytes @ 0xE000EDF0)
T3DD4 000:372.047   CPU is running
T3DD4 000:372.094   CPU_WriteMem(4 bytes @ 0xE000EDF0)
T3DD4 000:373.328   CPU is running
T3DD4 000:373.365   CPU_WriteMem(4 bytes @ 0xE000EDFC)
T3DD4 000:379.967   CPU_ReadMem(4 bytes @ 0xE000EDF0)
T3DD4 000:387.206   CPU_WriteMem(4 bytes @ 0xE0002000)
T3DD4 000:388.300   CPU_ReadMem(4 bytes @ 0xE000EDFC)
T3DD4 000:389.486   CPU_ReadMem(4 bytes @ 0xE0001000)
T3DD4 000:390.684 - 83.728ms
T3DD4 000:390.749 JLINK_Halt()
T3DD4 000:390.777 - 0.040ms returns 0x00
T3DD4 000:390.806 JLINK_ReadMemU32(0xE000EDF0, 0x1 Items)
T3DD4 000:390.850   CPU_ReadMem(4 bytes @ 0xE000EDF0)
T3DD4 000:391.919   Data:  03 00 03 00
T3DD4 000:391.975   Debug reg: DHCSR
T3DD4 000:392.005 - 1.209ms returns 1 (0x1)
T3DD4 000:392.049 JLINK_WriteU32_64(0xE000EDF0, 0xA05F0003)
T3DD4 000:392.072   Debug reg: DHCSR
T3DD4 000:392.551   CPU_WriteMem(4 bytes @ 0xE000EDF0)
T3DD4 000:393.762 - 1.764ms returns 0 (0x00000000)
T3DD4 000:393.846 JLINK_WriteU32_64(0xE000EDFC, 0x01000000)
T3DD4 000:393.870   Debug reg: DEMCR
T3DD4 000:393.926   CPU_WriteMem(4 bytes @ 0xE000EDFC)
T3DD4 000:394.969 - 1.151ms returns 0 (0x00000000)
T3DD4 000:404.578 JLINK_GetHWStatus(...)
T3DD4 000:405.128 - 0.574ms returns 0
T3DD4 000:409.466 JLINK_GetNumBPUnits(Type = 0xFFFFFF00)
T3DD4 000:409.481 - 0.018ms returns 0x06
T3DD4 000:409.488 JLINK_GetNumBPUnits(Type = 0xF0)
T3DD4 000:409.495 - 0.009ms returns 0x2000
T3DD4 000:409.501 JLINK_GetNumWPUnits()
T3DD4 000:409.507 - 0.009ms returns 4
T3DD4 000:413.584 JLINK_GetSpeed()
T3DD4 000:413.599 - 0.019ms returns 1000
T3DD4 000:415.965 JLINK_ReadMemU32(0xE000E004, 0x1 Items)
T3DD4 000:415.993   CPU_ReadMem(4 bytes @ 0xE000E004)
T3DD4 000:416.972   Data:  03 00 00 00
T3DD4 000:417.011 - 1.048ms returns 1 (0x1)
T3DD4 000:417.025 JLINK_ReadMemU32(0xE000E004, 0x1 Items)
T3DD4 000:417.054   CPU_ReadMem(4 bytes @ 0xE000E004)
T3DD4 000:418.045   Data:  03 00 00 00
T3DD4 000:418.061 - 1.039ms returns 1 (0x1)
T3DD4 000:418.070 JLINK_WriteMemEx(0xE0001000, 0x0000001C Bytes, Flags = 0x02000004)
T3DD4 000:418.077   Data:  01 00 00 00 00 00 00 00 00 00 00 00 00 00 00 00 ...
T3DD4 000:418.095   CPU_WriteMem(28 bytes @ 0xE0001000)
T3DD4 000:419.192 - 1.130ms returns 0x1C
T3DD4 000:419.211 JLINK_Halt()
T3DD4 000:419.220 - 0.013ms returns 0x00
T3DD4 000:419.230 JLINK_IsHalted()
T3DD4 000:419.243 - 0.017ms returns TRUE
T3DD4 000:421.642 JLINK_WriteMem(0x20000000, 0x260 Bytes, ...)
T3DD4 000:421.652   Data:  00 BE 0A E0 0D 78 2D 06 68 40 08 24 40 00 00 D3 ...
T3DD4 000:421.830   CPU_WriteMem(608 bytes @ 0x20000000)
T3DD4 000:428.347 - 6.737ms returns 0x260
T3DD4 000:428.423 JLINK_HasError()
T3DD4 000:428.433 JLINK_WriteReg(R0, 0x08000000)
T3DD4 000:428.452 - 0.022ms returns 0
T3DD4 000:428.459 JLINK_WriteReg(R1, 0x00B71B00)
T3DD4 000:428.466 - 0.010ms returns 0
T3DD4 000:428.473 JLINK_WriteReg(R2, 0x00000001)
T3DD4 000:428.480 - 0.009ms returns 0
T3DD4 000:428.487 JLINK_WriteReg(R3, 0x00000000)
T3DD4 000:428.493 - 0.009ms returns 0
T3DD4 000:428.500 JLINK_WriteReg(R4, 0x00000000)
T3DD4 000:428.507 - 0.009ms returns 0
T3DD4 000:428.514 JLINK_WriteReg(R5, 0x00000000)
T3DD4 000:428.520 - 0.009ms returns 0
T3DD4 000:428.528 JLINK_WriteReg(R6, 0x00000000)
T3DD4 000:428.534 - 0.009ms returns 0
T3DD4 000:428.541 JLINK_WriteReg(R7, 0x00000000)
T3DD4 000:428.548 - 0.009ms returns 0
T3DD4 000:428.555 JLINK_WriteReg(R8, 0x00000000)
T3DD4 000:428.565 - 0.013ms returns 0
T3DD4 000:428.572 JLINK_WriteReg(R9, 0x2000024C)
T3DD4 000:428.579 - 0.009ms returns 0
T3DD4 000:428.586 JLINK_WriteReg(R10, 0x00000000)
T3DD4 000:428.592 - 0.010ms returns 0
T3DD4 000:428.599 JLINK_WriteReg(R11, 0x00000000)
T3DD4 000:428.606 - 0.009ms returns 0
T3DD4 000:428.613 JLINK_WriteReg(R12, 0x00000000)
T3DD4 000:428.620 - 0.009ms returns 0
T3DD4 000:428.626 JLINK_WriteReg(R13 (SP), 0x20001000)
T3DD4 000:428.634 - 0.010ms returns 0
T3DD4 000:428.641 JLINK_WriteReg(R14, 0x20000001)
T3DD4 000:428.652 - 0.015ms returns 0
T3DD4 000:428.660 JLINK_WriteReg(R15 (PC), 0x20000020)
T3DD4 000:428.667 - 0.011ms returns 0
T3DD4 000:428.674 JLINK_WriteReg(XPSR, 0x01000000)
T3DD4 000:428.681 - 0.009ms returns 0
T3DD4 000:428.688 JLINK_WriteReg(MSP, 0x20001000)
T3DD4 000:428.695 - 0.009ms returns 0
T3DD4 000:428.702 JLINK_WriteReg(PSP, 0x20001000)
T3DD4 000:428.708 - 0.009ms returns 0
T3DD4 000:428.715 JLINK_WriteReg(CFBP, 0x00000000)
T3DD4 000:428.722 - 0.009ms returns 0
T3DD4 000:428.729 JLINK_SetBPEx(Addr = 0x20000000, Type = 0xFFFFFFF2)
T3DD4 000:428.743   CPU_ReadMem(2 bytes @ 0x20000000)
T3DD4 000:429.731 - 1.010ms returns 0x00000001
T3DD4 000:429.745 JLINK_Go()
T3DD4 000:429.755   CPU_WriteMem(2 bytes @ 0x20000000)
T3DD4 000:430.680   CPU_ReadMem(4 bytes @ 0xE0001000)
T3DD4 000:431.562   CPU_WriteMem(4 bytes @ 0xE0002008)
T3DD4 000:431.578   CPU_WriteMem(4 bytes @ 0xE000200C)
T3DD4 000:431.587   CPU_WriteMem(4 bytes @ 0xE0002010)
T3DD4 000:431.596   CPU_WriteMem(4 bytes @ 0xE0002014)
T3DD4 000:431.605   CPU_WriteMem(4 bytes @ 0xE0002018)
T3DD4 000:431.614   CPU_WriteMem(4 bytes @ 0xE000201C)
T3DD4 000:434.512   CPU_WriteMem(4 bytes @ 0xE0001004)
T3DD4 000:441.361 - 11.655ms
T3DD4 000:441.413 JLINK_IsHalted()
T3DD4 000:448.033   CPU_ReadMem(2 bytes @ 0x20000000)
T3DD4 000:449.087 - 7.687ms returns TRUE
T3DD4 000:449.114 JLINK_ReadReg(R15 (PC))
T3DD4 000:449.130 - 0.020ms returns 0x20000000
T3DD4 000:449.142 JLINK_ClrBPEx(BPHandle = 0x00000001)
T3DD4 000:449.153 - 0.015ms returns 0x00
T3DD4 000:449.166 JLINK_ReadReg(R0)
T3DD4 000:449.177 - 0.015ms returns 0x00000000
T3DD4 000:449.987 JLINK_HasError()
T3DD4 000:450.014 JLINK_WriteReg(R0, 0x08000000)
T3DD4 000:450.028 - 0.019ms returns 0
T3DD4 000:450.039 JLINK_WriteReg(R1, 0x00B71B00)
T3DD4 000:450.048 - 0.014ms returns 0
T3DD4 000:450.058 JLINK_WriteReg(R2, 0x00000001)
T3DD4 000:450.065 - 0.010ms returns 0
T3DD4 000:450.072 JLINK_WriteReg(R3, 0x00000000)
T3DD4 000:450.079 - 0.010ms returns 0
T3DD4 000:450.087 JLINK_WriteReg(R4, 0x00000000)
T3DD4 000:450.094 - 0.010ms returns 0
T3DD4 000:450.102 JLINK_WriteReg(R5, 0x00000000)
T3DD4 000:450.108 - 0.010ms returns 0
T3DD4 000:450.116 JLINK_WriteReg(R6, 0x00000000)
T3DD4 000:450.123 - 0.010ms returns 0
T3DD4 000:450.130 JLINK_WriteReg(R7, 0x00000000)
T3DD4 000:450.137 - 0.010ms returns 0
T3DD4 000:450.145 JLINK_WriteReg(R8, 0x00000000)
T3DD4 000:450.152 - 0.010ms returns 0
T3DD4 000:450.159 JLINK_WriteReg(R9, 0x2000024C)
T3DD4 000:450.166 - 0.010ms returns 0
T3DD4 000:450.174 JLINK_WriteReg(R10, 0x00000000)
T3DD4 000:450.181 - 0.010ms returns 0
T3DD4 000:450.189 JLINK_WriteReg(R11, 0x00000000)
T3DD4 000:450.196 - 0.010ms returns 0
T3DD4 000:450.203 JLINK_WriteReg(R12, 0x00000000)
T3DD4 000:450.210 - 0.010ms returns 0
T3DD4 000:450.217 JLINK_WriteReg(R13 (SP), 0x20001000)
T3DD4 000:450.225 - 0.011ms returns 0
T3DD4 000:450.233 JLINK_WriteReg(R14, 0x20000001)
T3DD4 000:450.240 - 0.010ms returns 0
T3DD4 000:450.247 JLINK_WriteReg(R15 (PC), 0x200000B2)
T3DD4 000:450.255 - 0.010ms returns 0
T3DD4 000:450.262 JLINK_WriteReg(XPSR, 0x01000000)
T3DD4 000:450.269 - 0.010ms returns 0
T3DD4 000:450.277 JLINK_WriteReg(MSP, 0x20001000)
T3DD4 000:450.284 - 0.010ms returns 0
T3DD4 000:450.291 JLINK_WriteReg(PSP, 0x20001000)
T3DD4 000:450.298 - 0.010ms returns 0
T3DD4 000:450.306 JLINK_WriteReg(CFBP, 0x00000000)
T3DD4 000:450.313 - 0.010ms returns 0
T3DD4 000:450.321 JLINK_SetBPEx(Addr = 0x20000000, Type = 0xFFFFFFF2)
T3DD4 000:450.329 - 0.011ms returns 0x00000002
T3DD4 000:450.337 JLINK_Go()
T3DD4 000:450.354   CPU_ReadMem(4 bytes @ 0xE0001000)
T3DD4 000:457.013 - 6.700ms
T3DD4 000:457.047 JLINK_IsHalted()
T3DD4 000:457.931 - 0.895ms returns FALSE
T3DD4 000:457.950 JLINK_HasError()
T3DD4 000:466.582 JLINK_IsHalted()
T3DD4 000:467.599 - 1.027ms returns FALSE
T3DD4 000:467.615 JLINK_HasError()
T3DD4 000:469.504 JLINK_IsHalted()
T3DD4 000:470.487 - 0.994ms returns FALSE
T3DD4 000:470.504 JLINK_HasError()
T3DD4 000:472.531 JLINK_IsHalted()
T3DD4 000:473.482 - 0.964ms returns FALSE
T3DD4 000:473.503 JLINK_HasError()
T3DD4 000:475.556 JLINK_IsHalted()
T3DD4 000:476.534 - 0.986ms returns FALSE
T3DD4 000:476.548 JLINK_HasError()
T3DD4 000:477.609 JLINK_IsHalted()
T3DD4 000:478.610 - 1.012ms returns FALSE
T3DD4 000:478.629 JLINK_HasError()
T3DD4 000:480.157 JLINK_IsHalted()
T3DD4 000:486.214   CPU_ReadMem(2 bytes @ 0x20000000)
T3DD4 000:487.051 - 6.922ms returns TRUE
T3DD4 000:487.087 JLINK_ReadReg(R15 (PC))
T3DD4 000:487.098 - 0.013ms returns 0x20000000
T3DD4 000:487.106 JLINK_ClrBPEx(BPHandle = 0x00000002)
T3DD4 000:487.113 - 0.010ms returns 0x00
T3DD4 000:487.121 JLINK_ReadReg(R0)
T3DD4 000:487.128 - 0.010ms returns 0x00000000
T3DD4 000:539.716 JLINK_HasError()
T3DD4 000:539.792 JLINK_WriteReg(R0, 0x00000001)
T3DD4 000:539.862 - 0.085ms returns 0
T3DD4 000:539.895 JLINK_WriteReg(R1, 0x00B71B00)
T3DD4 000:539.919 - 0.035ms returns 0
T3DD4 000:539.945 JLINK_WriteReg(R2, 0x00000001)
T3DD4 000:539.968 - 0.034ms returns 0
T3DD4 000:539.993 JLINK_WriteReg(R3, 0x00000000)
T3DD4 000:540.016 - 0.034ms returns 0
T3DD4 000:540.040 JLINK_WriteReg(R4, 0x00000000)
T3DD4 000:540.063 - 0.034ms returns 0
T3DD4 000:540.088 JLINK_WriteReg(R5, 0x00000000)
T3DD4 000:540.111 - 0.034ms returns 0
T3DD4 000:540.135 JLINK_WriteReg(R6, 0x00000000)
T3DD4 000:540.159 - 0.034ms returns 0
T3DD4 000:540.183 JLINK_WriteReg(R7, 0x00000000)
T3DD4 000:540.205 - 0.034ms returns 0
T3DD4 000:540.230 JLINK_WriteReg(R8, 0x00000000)
T3DD4 000:540.253 - 0.034ms returns 0
T3DD4 000:540.277 JLINK_WriteReg(R9, 0x2000024C)
T3DD4 000:540.300 - 0.034ms returns 0
T3DD4 000:540.325 JLINK_WriteReg(R10, 0x00000000)
T3DD4 000:540.348 - 0.033ms returns 0
T3DD4 000:540.372 JLINK_WriteReg(R11, 0x00000000)
T3DD4 000:540.395 - 0.033ms returns 0
T3DD4 000:540.420 JLINK_WriteReg(R12, 0x00000000)
T3DD4 000:540.443 - 0.034ms returns 0
T3DD4 000:540.468 JLINK_WriteReg(R13 (SP), 0x20001000)
T3DD4 000:540.493 - 0.036ms returns 0
T3DD4 000:540.517 JLINK_WriteReg(R14, 0x20000001)
T3DD4 000:540.541 - 0.034ms returns 0
T3DD4 000:540.565 JLINK_WriteReg(R15 (PC), 0x2000009C)
T3DD4 000:540.588 - 0.034ms returns 0
T3DD4 000:540.613 JLINK_WriteReg(XPSR, 0x01000000)
T3DD4 000:540.646 - 0.044ms returns 0
T3DD4 000:540.671 JLINK_WriteReg(MSP, 0x20001000)
T3DD4 000:540.694 - 0.034ms returns 0
T3DD4 000:540.719 JLINK_WriteReg(PSP, 0x20001000)
T3DD4 000:540.742 - 0.034ms returns 0
T3DD4 000:540.766 JLINK_WriteReg(CFBP, 0x00000000)
T3DD4 000:540.790 - 0.035ms returns 0
T3DD4 000:540.814 JLINK_SetBPEx(Addr = 0x20000000, Type = 0xFFFFFFF2)
T3DD4 000:540.837 - 0.032ms returns 0x00000003
T3DD4 000:540.859 JLINK_Go()
T3DD4 000:540.903   CPU_ReadMem(4 bytes @ 0xE0001000)
T3DD4 000:548.117 - 7.294ms
T3DD4 000:548.167 JLINK_IsHalted()
T3DD4 000:554.346   CPU_ReadMem(2 bytes @ 0x20000000)
T3DD4 000:555.387 - 7.236ms returns TRUE
T3DD4 000:555.419 JLINK_ReadReg(R15 (PC))
T3DD4 000:555.440 - 0.026ms returns 0x20000000
T3DD4 000:555.455 JLINK_ClrBPEx(BPHandle = 0x00000003)
T3DD4 000:555.470 - 0.021ms returns 0x00
T3DD4 000:555.485 JLINK_ReadReg(R0)
T3DD4 000:555.500 - 0.020ms returns 0x00000000
T3DD4 000:561.869 JLINK_WriteMem(0x20000000, 0x260 Bytes, ...)
T3DD4 000:561.882   Data:  00 BE 0A E0 0D 78 2D 06 68 40 08 24 40 00 00 D3 ...
T3DD4 000:561.903   CPU_WriteMem(608 bytes @ 0x20000000)
T3DD4 000:568.408 - 6.579ms returns 0x260
T3DD4 000:568.491 JLINK_HasError()
T3DD4 000:568.502 JLINK_WriteReg(R0, 0x08000000)
T3DD4 000:568.514 - 0.015ms returns 0
T3DD4 000:568.522 JLINK_WriteReg(R1, 0x00B71B00)
T3DD4 000:568.529 - 0.010ms returns 0
T3DD4 000:568.537 JLINK_WriteReg(R2, 0x00000002)
T3DD4 000:568.544 - 0.010ms returns 0
T3DD4 000:568.552 JLINK_WriteReg(R3, 0x00000000)
T3DD4 000:568.559 - 0.010ms returns 0
T3DD4 000:568.567 JLINK_WriteReg(R4, 0x00000000)
T3DD4 000:568.574 - 0.010ms returns 0
T3DD4 000:568.582 JLINK_WriteReg(R5, 0x00000000)
T3DD4 000:568.589 - 0.010ms returns 0
T3DD4 000:568.597 JLINK_WriteReg(R6, 0x00000000)
T3DD4 000:568.604 - 0.015ms returns 0
T3DD4 000:568.619 JLINK_WriteReg(R7, 0x00000000)
T3DD4 000:568.627 - 0.011ms returns 0
T3DD4 000:568.635 JLINK_WriteReg(R8, 0x00000000)
T3DD4 000:568.642 - 0.010ms returns 0
T3DD4 000:568.649 JLINK_WriteReg(R9, 0x2000024C)
T3DD4 000:568.657 - 0.010ms returns 0
T3DD4 000:568.664 JLINK_WriteReg(R10, 0x00000000)
T3DD4 000:568.672 - 0.010ms returns 0
T3DD4 000:568.679 JLINK_WriteReg(R11, 0x00000000)
T3DD4 000:568.687 - 0.010ms returns 0
T3DD4 000:568.694 JLINK_WriteReg(R12, 0x00000000)
T3DD4 000:568.702 - 0.010ms returns 0
T3DD4 000:568.709 JLINK_WriteReg(R13 (SP), 0x20001000)
T3DD4 000:568.717 - 0.011ms returns 0
T3DD4 000:568.725 JLINK_WriteReg(R14, 0x20000001)
T3DD4 000:568.732 - 0.010ms returns 0
T3DD4 000:568.740 JLINK_WriteReg(R15 (PC), 0x20000020)
T3DD4 000:568.748 - 0.011ms returns 0
T3DD4 000:568.755 JLINK_WriteReg(XPSR, 0x01000000)
T3DD4 000:568.763 - 0.010ms returns 0
T3DD4 000:568.770 JLINK_WriteReg(MSP, 0x20001000)
T3DD4 000:568.778 - 0.010ms returns 0
T3DD4 000:568.785 JLINK_WriteReg(PSP, 0x20001000)
T3DD4 000:568.792 - 0.010ms returns 0
T3DD4 000:568.800 JLINK_WriteReg(CFBP, 0x00000000)
T3DD4 000:568.807 - 0.010ms returns 0
T3DD4 000:568.816 JLINK_SetBPEx(Addr = 0x20000000, Type = 0xFFFFFFF2)
T3DD4 000:568.829   CPU_ReadMem(2 bytes @ 0x20000000)
T3DD4 000:569.699 - 0.891ms returns 0x00000004
T3DD4 000:569.713 JLINK_Go()
T3DD4 000:569.722   CPU_WriteMem(2 bytes @ 0x20000000)
T3DD4 000:570.602   CPU_ReadMem(4 bytes @ 0xE0001000)
T3DD4 000:577.308 - 7.631ms
T3DD4 000:577.352 JLINK_IsHalted()
T3DD4 000:584.024   CPU_ReadMem(2 bytes @ 0x20000000)
T3DD4 000:585.004 - 7.662ms returns TRUE
T3DD4 000:585.028 JLINK_ReadReg(R15 (PC))
T3DD4 000:585.042 - 0.018ms returns 0x20000000
T3DD4 000:585.052 JLINK_ClrBPEx(BPHandle = 0x00000004)
T3DD4 000:585.063 - 0.014ms returns 0x00
T3DD4 000:585.073 JLINK_ReadReg(R0)
T3DD4 000:585.083 - 0.014ms returns 0x00000000
T3DD4 000:585.477 JLINK_WriteMem(0x20000260, 0x1A0 Bytes, ...)
T3DD4 000:585.496   Data:  10 74 00 10 81 04 00 08 01 F9 00 08 C5 DD 00 08 ...
T3DD4 000:585.536   CPU_WriteMem(416 bytes @ 0x20000260)
T3DD4 000:590.673 - 5.240ms returns 0x1A0
T3DD4 000:590.737 JLINK_WriteMem(0x20000400, 0x260 Bytes, ...)
T3DD4 000:590.754   Data:  9B 04 00 08 9B 04 00 08 9B 04 00 08 9B 04 00 08 ...
T3DD4 000:590.806   CPU_WriteMem(608 bytes @ 0x20000400)
T3DD4 000:597.278 - 6.569ms returns 0x260
T3DD4 000:597.319 JLINK_HasError()
T3DD4 000:597.331 JLINK_WriteReg(R0, 0x08000000)
T3DD4 000:597.346 - 0.020ms returns 0
T3DD4 000:597.356 JLINK_WriteReg(R1, 0x00000400)
T3DD4 000:597.365 - 0.013ms returns 0
T3DD4 000:597.374 JLINK_WriteReg(R2, 0x20000260)
T3DD4 000:597.382 - 0.012ms returns 0
T3DD4 000:597.392 JLINK_WriteReg(R3, 0x00000000)
T3DD4 000:597.400 - 0.012ms returns 0
T3DD4 000:597.409 JLINK_WriteReg(R4, 0x00000000)
T3DD4 000:597.418 - 0.012ms returns 0
T3DD4 000:597.427 JLINK_WriteReg(R5, 0x00000000)
T3DD4 000:597.435 - 0.012ms returns 0
T3DD4 000:597.445 JLINK_WriteReg(R6, 0x00000000)
T3DD4 000:597.453 - 0.012ms returns 0
T3DD4 000:597.462 JLINK_WriteReg(R7, 0x00000000)
T3DD4 000:597.471 - 0.012ms returns 0
T3DD4 000:597.480 JLINK_WriteReg(R8, 0x00000000)
T3DD4 000:597.489 - 0.012ms returns 0
T3DD4 000:597.498 JLINK_WriteReg(R9, 0x2000024C)
T3DD4 000:597.506 - 0.012ms returns 0
T3DD4 000:597.515 JLINK_WriteReg(R10, 0x00000000)
T3DD4 000:597.524 - 0.012ms returns 0
T3DD4 000:597.533 JLINK_WriteReg(R11, 0x00000000)
T3DD4 000:597.542 - 0.012ms returns 0
T3DD4 000:597.551 JLINK_WriteReg(R12, 0x00000000)
T3DD4 000:597.559 - 0.012ms returns 0
T3DD4 000:597.569 JLINK_WriteReg(R13 (SP), 0x20001000)
T3DD4 000:597.578 - 0.013ms returns 0
T3DD4 000:597.587 JLINK_WriteReg(R14, 0x20000001)
T3DD4 000:597.596 - 0.012ms returns 0
T3DD4 000:597.605 JLINK_WriteReg(R15 (PC), 0x20000150)
T3DD4 000:597.614 - 0.013ms returns 0
T3DD4 000:597.623 JLINK_WriteReg(XPSR, 0x01000000)
T3DD4 000:597.632 - 0.012ms returns 0
T3DD4 000:597.641 JLINK_WriteReg(MSP, 0x20001000)
T3DD4 000:597.649 - 0.012ms returns 0
T3DD4 000:597.663 JLINK_WriteReg(PSP, 0x20001000)
T3DD4 000:597.675 - 0.016ms returns 0
T3DD4 000:597.684 JLINK_WriteReg(CFBP, 0x00000000)
T3DD4 000:597.693 - 0.012ms returns 0
T3DD4 000:597.703 JLINK_SetBPEx(Addr = 0x20000000, Type = 0xFFFFFFF2)
T3DD4 000:597.713 - 0.014ms returns 0x00000005
T3DD4 000:597.723 JLINK_Go()
T3DD4 000:597.741   CPU_ReadMem(4 bytes @ 0xE0001000)
T3DD4 000:604.441 - 6.748ms
T3DD4 000:604.483 JLINK_IsHalted()
T3DD4 000:605.480 - 1.014ms returns FALSE
T3DD4 000:605.510 JLINK_HasError()
T3DD4 000:612.279 JLINK_IsHalted()
T3DD4 000:613.235 - 0.965ms returns FALSE
T3DD4 000:613.251 JLINK_HasError()
T3DD4 000:615.265 JLINK_IsHalted()
T3DD4 000:621.532   CPU_ReadMem(2 bytes @ 0x20000000)
T3DD4 000:622.500 - 7.267ms returns TRUE
T3DD4 000:622.541 JLINK_ReadReg(R15 (PC))
T3DD4 000:622.553 - 0.015ms returns 0x20000000
T3DD4 000:622.562 JLINK_ClrBPEx(BPHandle = 0x00000005)
T3DD4 000:622.570 - 0.011ms returns 0x00
T3DD4 000:622.579 JLINK_ReadReg(R0)
T3DD4 000:622.586 - 0.011ms returns 0x00000000
T3DD4 000:623.111 JLINK_WriteMem(0x20000260, 0x1A0 Bytes, ...)
T3DD4 000:623.125   Data:  38 C0 91 F8 22 E0 1E F0 10 0F 08 BF AC EC 10 8A ...
T3DD4 000:623.145   CPU_WriteMem(416 bytes @ 0x20000260)
T3DD4 000:627.978 - 4.894ms returns 0x1A0
T3DD4 000:628.016 JLINK_WriteMem(0x20000400, 0x260 Bytes, ...)
T3DD4 000:628.026   Data:  08 43 18 BF 4F F0 FF 30 01 46 AF F3 00 80 BD E8 ...
T3DD4 000:628.051   CPU_WriteMem(608 bytes @ 0x20000400)
T3DD4 000:634.280 - 6.296ms returns 0x260
T3DD4 000:634.326 JLINK_HasError()
T3DD4 000:634.340 JLINK_WriteReg(R0, 0x08000400)
T3DD4 000:634.358 - 0.023ms returns 0
T3DD4 000:634.369 JLINK_WriteReg(R1, 0x00000400)
T3DD4 000:634.379 - 0.015ms returns 0
T3DD4 000:634.390 JLINK_WriteReg(R2, 0x20000260)
T3DD4 000:634.400 - 0.014ms returns 0
T3DD4 000:634.411 JLINK_WriteReg(R3, 0x00000000)
T3DD4 000:634.421 - 0.015ms returns 0
T3DD4 000:634.432 JLINK_WriteReg(R4, 0x00000000)
T3DD4 000:634.443 - 0.015ms returns 0
T3DD4 000:634.454 JLINK_WriteReg(R5, 0x00000000)
T3DD4 000:634.464 - 0.015ms returns 0
T3DD4 000:634.475 JLINK_WriteReg(R6, 0x00000000)
T3DD4 000:634.485 - 0.015ms returns 0
T3DD4 000:634.496 JLINK_WriteReg(R7, 0x00000000)
T3DD4 000:634.507 - 0.015ms returns 0
T3DD4 000:634.517 JLINK_WriteReg(R8, 0x00000000)
T3DD4 000:634.528 - 0.015ms returns 0
T3DD4 000:634.539 JLINK_WriteReg(R9, 0x2000024C)
T3DD4 000:634.549 - 0.015ms returns 0
T3DD4 000:634.560 JLINK_WriteReg(R10, 0x00000000)
T3DD4 000:634.570 - 0.015ms returns 0
T3DD4 000:634.581 JLINK_WriteReg(R11, 0x00000000)
T3DD4 000:634.592 - 0.015ms returns 0
T3DD4 000:634.603 JLINK_WriteReg(R12, 0x00000000)
T3DD4 000:634.613 - 0.015ms returns 0
T3DD4 000:634.624 JLINK_WriteReg(R13 (SP), 0x20001000)
T3DD4 000:634.635 - 0.016ms returns 0
T3DD4 000:634.646 JLINK_WriteReg(R14, 0x20000001)
T3DD4 000:634.657 - 0.015ms returns 0
T3DD4 000:634.668 JLINK_WriteReg(R15 (PC), 0x20000150)
T3DD4 000:634.678 - 0.015ms returns 0
T3DD4 000:634.689 JLINK_WriteReg(XPSR, 0x01000000)
T3DD4 000:634.700 - 0.015ms returns 0
T3DD4 000:634.710 JLINK_WriteReg(MSP, 0x20001000)
T3DD4 000:634.720 - 0.015ms returns 0
T3DD4 000:634.731 JLINK_WriteReg(PSP, 0x20001000)
T3DD4 000:634.742 - 0.015ms returns 0
T3DD4 000:634.752 JLINK_WriteReg(CFBP, 0x00000000)
T3DD4 000:634.762 - 0.014ms returns 0
T3DD4 000:634.773 JLINK_SetBPEx(Addr = 0x20000000, Type = 0xFFFFFFF2)
T3DD4 000:634.785 - 0.016ms returns 0x00000006
T3DD4 000:634.796 JLINK_Go()
T3DD4 000:634.819   CPU_ReadMem(4 bytes @ 0xE0001000)
T3DD4 000:641.601 - 6.826ms
T3DD4 000:641.635 JLINK_IsHalted()
T3DD4 000:642.438 - 0.819ms returns FALSE
T3DD4 000:642.465 JLINK_HasError()
T3DD4 000:645.472 JLINK_IsHalted()
T3DD4 000:646.473 - 1.035ms returns FALSE
T3DD4 000:646.514 JLINK_HasError()
T3DD4 000:648.479 JLINK_IsHalted()
T3DD4 000:649.466 - 0.999ms returns FALSE
T3DD4 000:649.486 JLINK_HasError()
T3DD4 000:651.456 JLINK_IsHalted()
T3DD4 000:652.464 - 1.028ms returns FALSE
T3DD4 000:652.494 JLINK_HasError()
T3DD4 000:655.960 JLINK_IsHalted()
T3DD4 000:662.300   CPU_ReadMem(2 bytes @ 0x20000000)
T3DD4 000:663.192 - 7.241ms returns TRUE
T3DD4 000:663.209 JLINK_ReadReg(R15 (PC))
T3DD4 000:663.219 - 0.013ms returns 0x20000000
T3DD4 000:663.227 JLINK_ClrBPEx(BPHandle = 0x00000006)
T3DD4 000:663.234 - 0.010ms returns 0x00
T3DD4 000:663.242 JLINK_ReadReg(R0)
T3DD4 000:663.249 - 0.010ms returns 0x00000000
T3DD4 000:663.714 JLINK_WriteMem(0x20000260, 0x1A0 Bytes, ...)
T3DD4 000:663.725   Data:  1A F0 12 FB 30 46 BF E7 00 26 F8 E7 2D E9 F0 41 ...
T3DD4 000:663.742   CPU_WriteMem(416 bytes @ 0x20000260)
T3DD4 000:668.626 - 4.941ms returns 0x1A0
T3DD4 000:668.670 JLINK_WriteMem(0x20000400, 0x260 Bytes, ...)
T3DD4 000:668.680   Data:  FF 03 43 EA 03 22 42 EA 02 42 00 F0 02 B8 4F F0 ...
T3DD4 000:668.707   CPU_WriteMem(608 bytes @ 0x20000400)
T3DD4 000:675.267 - 6.634ms returns 0x260
T3DD4 000:675.323 JLINK_HasError()
T3DD4 000:675.336 JLINK_WriteReg(R0, 0x08000800)
T3DD4 000:675.353 - 0.021ms returns 0
T3DD4 000:675.363 JLINK_WriteReg(R1, 0x00000400)
T3DD4 000:675.372 - 0.013ms returns 0
T3DD4 000:675.383 JLINK_WriteReg(R2, 0x20000260)
T3DD4 000:675.392 - 0.013ms returns 0
T3DD4 000:675.402 JLINK_WriteReg(R3, 0x00000000)
T3DD4 000:675.411 - 0.013ms returns 0
T3DD4 000:675.420 JLINK_WriteReg(R4, 0x00000000)
T3DD4 000:675.429 - 0.013ms returns 0
T3DD4 000:675.439 JLINK_WriteReg(R5, 0x00000000)
T3DD4 000:675.448 - 0.013ms returns 0
T3DD4 000:675.458 JLINK_WriteReg(R6, 0x00000000)
T3DD4 000:675.467 - 0.013ms returns 0
T3DD4 000:675.477 JLINK_WriteReg(R7, 0x00000000)
T3DD4 000:675.486 - 0.013ms returns 0
T3DD4 000:675.496 JLINK_WriteReg(R8, 0x00000000)
T3DD4 000:675.505 - 0.013ms returns 0
T3DD4 000:675.514 JLINK_WriteReg(R9, 0x2000024C)
T3DD4 000:675.523 - 0.013ms returns 0
T3DD4 000:675.534 JLINK_WriteReg(R10, 0x00000000)
T3DD4 000:675.543 - 0.013ms returns 0
T3DD4 000:675.553 JLINK_WriteReg(R11, 0x00000000)
T3DD4 000:675.562 - 0.013ms returns 0
T3DD4 000:675.572 JLINK_WriteReg(R12, 0x00000000)
T3DD4 000:675.593 - 0.027ms returns 0
T3DD4 000:675.607 JLINK_WriteReg(R13 (SP), 0x20001000)
T3DD4 000:675.623 - 0.021ms returns 0
T3DD4 000:675.635 JLINK_WriteReg(R14, 0x20000001)
T3DD4 000:675.647 - 0.017ms returns 0
T3DD4 000:675.659 JLINK_WriteReg(R15 (PC), 0x20000150)
T3DD4 000:675.671 - 0.018ms returns 0
T3DD4 000:675.696 JLINK_WriteReg(XPSR, 0x01000000)
T3DD4 000:675.708 - 0.017ms returns 0
T3DD4 000:675.723 JLINK_WriteReg(MSP, 0x20001000)
T3DD4 000:675.732 - 0.013ms returns 0
T3DD4 000:675.741 JLINK_WriteReg(PSP, 0x20001000)
T3DD4 000:675.750 - 0.013ms returns 0
T3DD4 000:675.761 JLINK_WriteReg(CFBP, 0x00000000)
T3DD4 000:675.770 - 0.013ms returns 0
T3DD4 000:675.792 JLINK_SetBPEx(Addr = 0x20000000, Type = 0xFFFFFFF2)
T3DD4 000:675.804 - 0.016ms returns 0x00000007
T3DD4 000:675.828 JLINK_Go()
T3DD4 000:675.850   CPU_ReadMem(4 bytes @ 0xE0001000)
T3DD4 000:682.937 - 7.145ms
T3DD4 000:682.992 JLINK_IsHalted()
T3DD4 000:683.973 - 1.025ms returns FALSE
T3DD4 000:684.041 JLINK_HasError()
T3DD4 000:685.231 JLINK_IsHalted()
T3DD4 000:686.375 - 1.172ms returns FALSE
T3DD4 000:686.415 JLINK_HasError()
T3DD4 000:688.181 JLINK_IsHalted()
T3DD4 000:689.278 - 1.113ms returns FALSE
T3DD4 000:689.305 JLINK_HasError()
T3DD4 000:691.210 JLINK_IsHalted()
T3DD4 000:692.270 - 1.078ms returns FALSE
T3DD4 000:692.301 JLINK_HasError()
T3DD4 000:694.163 JLINK_IsHalted()
T3DD4 000:700.834   CPU_ReadMem(2 bytes @ 0x20000000)
T3DD4 000:701.915 - 7.771ms returns TRUE
T3DD4 000:701.949 JLINK_ReadReg(R15 (PC))
T3DD4 000:701.968 - 0.026ms returns 0x20000000
T3DD4 000:701.984 JLINK_ClrBPEx(BPHandle = 0x00000007)
T3DD4 000:701.998 - 0.021ms returns 0x00
T3DD4 000:702.013 JLINK_ReadReg(R0)
T3DD4 000:702.027 - 0.020ms returns 0x00000000
T3DD4 000:702.668 JLINK_WriteMem(0x20000260, 0x1A0 Bytes, ...)
T3DD4 000:702.701   Data:  04 46 00 F0 87 FB 00 68 00 5D C0 06 02 D5 04 F1 ...
T3DD4 000:702.750   CPU_WriteMem(416 bytes @ 0x20000260)
T3DD4 000:707.774 - 5.160ms returns 0x1A0
T3DD4 000:707.852 JLINK_WriteMem(0x20000400, 0x260 Bytes, ...)
T3DD4 000:707.987   Data:  29 F9 0F B0 00 BD 00 00 E5 FF FF FF 0A 68 02 F8 ...
T3DD4 000:708.056   CPU_WriteMem(608 bytes @ 0x20000400)
T3DD4 000:714.647 - 6.838ms returns 0x260
T3DD4 000:714.724 JLINK_HasError()
T3DD4 000:714.755 JLINK_WriteReg(R0, 0x08000C00)
T3DD4 000:714.790 - 0.045ms returns 0
T3DD4 000:714.816 JLINK_WriteReg(R1, 0x00000400)
T3DD4 000:714.839 - 0.034ms returns 0
T3DD4 000:714.981 JLINK_WriteReg(R2, 0x20000260)
T3DD4 000:715.059 - 0.091ms returns 0
T3DD4 000:715.088 JLINK_WriteReg(R3, 0x00000000)
T3DD4 000:715.112 - 0.035ms returns 0
T3DD4 000:715.138 JLINK_WriteReg(R4, 0x00000000)
T3DD4 000:715.167 - 0.046ms returns 0
T3DD4 000:715.201 JLINK_WriteReg(R5, 0x00000000)
T3DD4 000:715.240 - 0.053ms returns 0
T3DD4 000:715.273 JLINK_WriteReg(R6, 0x00000000)
T3DD4 000:715.305 - 0.045ms returns 0
T3DD4 000:715.337 JLINK_WriteReg(R7, 0x00000000)
T3DD4 000:715.369 - 0.047ms returns 0
T3DD4 000:715.404 JLINK_WriteReg(R8, 0x00000000)
T3DD4 000:715.437 - 0.049ms returns 0
T3DD4 000:715.471 JLINK_WriteReg(R9, 0x2000024C)
T3DD4 000:715.507 - 0.050ms returns 0
T3DD4 000:715.541 JLINK_WriteReg(R10, 0x00000000)
T3DD4 000:715.574 - 0.047ms returns 0
T3DD4 000:715.606 JLINK_WriteReg(R11, 0x00000000)
T3DD4 000:715.636 - 0.041ms returns 0
T3DD4 000:715.659 JLINK_WriteReg(R12, 0x00000000)
T3DD4 000:715.677 - 0.025ms returns 0
T3DD4 000:715.695 JLINK_WriteReg(R13 (SP), 0x20001000)
T3DD4 000:715.714 - 0.027ms returns 0
T3DD4 000:715.733 JLINK_WriteReg(R14, 0x20000001)
T3DD4 000:715.750 - 0.025ms returns 0
T3DD4 000:715.769 JLINK_WriteReg(R15 (PC), 0x20000150)
T3DD4 000:715.786 - 0.025ms returns 0
T3DD4 000:715.804 JLINK_WriteReg(XPSR, 0x01000000)
T3DD4 000:715.821 - 0.025ms returns 0
T3DD4 000:715.840 JLINK_WriteReg(MSP, 0x20001000)
T3DD4 000:715.857 - 0.025ms returns 0
T3DD4 000:715.875 JLINK_WriteReg(PSP, 0x20001000)
T3DD4 000:715.892 - 0.025ms returns 0
T3DD4 000:715.910 JLINK_WriteReg(CFBP, 0x00000000)
T3DD4 000:715.927 - 0.025ms returns 0
T3DD4 000:715.946 JLINK_SetBPEx(Addr = 0x20000000, Type = 0xFFFFFFF2)
T3DD4 000:715.966 - 0.028ms returns 0x00000008
T3DD4 000:715.985 JLINK_Go()
T3DD4 000:716.021   CPU_ReadMem(4 bytes @ 0xE0001000)
T3DD4 000:723.316 - 7.378ms
T3DD4 000:723.386 JLINK_IsHalted()
T3DD4 000:724.436 - 1.077ms returns FALSE
T3DD4 000:724.484 JLINK_HasError()
T3DD4 000:730.200 JLINK_IsHalted()
T3DD4 000:731.222 - 1.058ms returns FALSE
T3DD4 000:731.275 JLINK_HasError()
T3DD4 000:732.636 JLINK_IsHalted()
T3DD4 000:733.714 - 1.116ms returns FALSE
T3DD4 000:733.767 JLINK_HasError()
T3DD4 000:735.708 JLINK_IsHalted()
T3DD4 000:742.188   CPU_ReadMem(2 bytes @ 0x20000000)
T3DD4 000:743.317 - 7.634ms returns TRUE
T3DD4 000:743.362 JLINK_ReadReg(R15 (PC))
T3DD4 000:743.383 - 0.028ms returns 0x20000000
T3DD4 000:743.399 JLINK_ClrBPEx(BPHandle = 0x00000008)
T3DD4 000:743.414 - 0.021ms returns 0x00
T3DD4 000:743.431 JLINK_ReadReg(R0)
T3DD4 000:743.445 - 0.020ms returns 0x00000000
T3DD4 000:745.525 JLINK_WriteMem(0x20000260, 0x1A0 Bytes, ...)
T3DD4 000:745.562   Data:  DF F8 74 B1 FB 44 C0 F8 20 A0 20 46 E1 68 88 47 ...
T3DD4 000:745.608   CPU_WriteMem(416 bytes @ 0x20000260)
T3DD4 000:750.644 - 5.154ms returns 0x1A0
T3DD4 000:750.696 JLINK_WriteMem(0x20000400, 0x260 Bytes, ...)
T3DD4 000:750.714   Data:  0B 69 C0 1A 91 F8 48 30 1B B1 91 F8 49 10 40 1A ...
T3DD4 000:750.754   CPU_WriteMem(608 bytes @ 0x20000400)
T3DD4 000:757.330 - 6.678ms returns 0x260
T3DD4 000:757.398 JLINK_HasError()
T3DD4 000:757.425 JLINK_WriteReg(R0, 0x08001000)
T3DD4 000:757.457 - 0.042ms returns 0
T3DD4 000:757.481 JLINK_WriteReg(R1, 0x00000400)
T3DD4 000:757.513 - 0.042ms returns 0
T3DD4 000:757.535 JLINK_WriteReg(R2, 0x20000260)
T3DD4 000:757.557 - 0.031ms returns 0
T3DD4 000:757.579 JLINK_WriteReg(R3, 0x00000000)
T3DD4 000:757.600 - 0.031ms returns 0
T3DD4 000:757.623 JLINK_WriteReg(R4, 0x00000000)
T3DD4 000:757.645 - 0.031ms returns 0
T3DD4 000:757.667 JLINK_WriteReg(R5, 0x00000000)
T3DD4 000:757.688 - 0.031ms returns 0
T3DD4 000:757.718 JLINK_WriteReg(R6, 0x00000000)
T3DD4 000:757.745 - 0.037ms returns 0
T3DD4 000:757.768 JLINK_WriteReg(R7, 0x00000000)
T3DD4 000:757.789 - 0.031ms returns 0
T3DD4 000:757.811 JLINK_WriteReg(R8, 0x00000000)
T3DD4 000:757.833 - 0.031ms returns 0
T3DD4 000:757.855 JLINK_WriteReg(R9, 0x2000024C)
T3DD4 000:757.876 - 0.031ms returns 0
T3DD4 000:757.899 JLINK_WriteReg(R10, 0x00000000)
T3DD4 000:757.920 - 0.031ms returns 0
T3DD4 000:757.942 JLINK_WriteReg(R11, 0x00000000)
T3DD4 000:757.963 - 0.031ms returns 0
T3DD4 000:757.986 JLINK_WriteReg(R12, 0x00000000)
T3DD4 000:758.007 - 0.031ms returns 0
T3DD4 000:758.029 JLINK_WriteReg(R13 (SP), 0x20001000)
T3DD4 000:758.052 - 0.033ms returns 0
T3DD4 000:758.075 JLINK_WriteReg(R14, 0x20000001)
T3DD4 000:758.096 - 0.031ms returns 0
T3DD4 000:758.119 JLINK_WriteReg(R15 (PC), 0x20000150)
T3DD4 000:758.141 - 0.032ms returns 0
T3DD4 000:758.163 JLINK_WriteReg(XPSR, 0x01000000)
T3DD4 000:758.185 - 0.031ms returns 0
T3DD4 000:758.207 JLINK_WriteReg(MSP, 0x20001000)
T3DD4 000:758.228 - 0.031ms returns 0
T3DD4 000:758.250 JLINK_WriteReg(PSP, 0x20001000)
T3DD4 000:758.272 - 0.032ms returns 0
T3DD4 000:758.295 JLINK_WriteReg(CFBP, 0x00000000)
T3DD4 000:758.316 - 0.031ms returns 0
T3DD4 000:758.339 JLINK_SetBPEx(Addr = 0x20000000, Type = 0xFFFFFFF2)
T3DD4 000:758.363 - 0.034ms returns 0x00000009
T3DD4 000:758.386 JLINK_Go()
T3DD4 000:758.427   CPU_ReadMem(4 bytes @ 0xE0001000)
T3DD4 000:765.402 - 7.046ms
T3DD4 000:765.450 JLINK_IsHalted()
T3DD4 000:766.523 - 1.097ms returns FALSE
T3DD4 000:766.563 JLINK_HasError()
T3DD4 000:768.356 JLINK_IsHalted()
T3DD4 000:769.302 - 0.976ms returns FALSE
T3DD4 000:769.358 JLINK_HasError()
T3DD4 000:771.380 JLINK_IsHalted()
T3DD4 000:772.313 - 0.961ms returns FALSE
T3DD4 000:772.360 JLINK_HasError()
T3DD4 000:774.328 JLINK_IsHalted()
T3DD4 000:775.378 - 1.077ms returns FALSE
T3DD4 000:775.423 JLINK_HasError()
T3DD4 000:779.186 JLINK_IsHalted()
T3DD4 000:785.303   CPU_ReadMem(2 bytes @ 0x20000000)
T3DD4 000:786.275 - 7.112ms returns TRUE
T3DD4 000:786.315 JLINK_ReadReg(R15 (PC))
T3DD4 000:786.339 - 0.033ms returns 0x20000000
T3DD4 000:786.359 JLINK_ClrBPEx(BPHandle = 0x00000009)
T3DD4 000:786.377 - 0.026ms returns 0x00
T3DD4 000:786.396 JLINK_ReadReg(R0)
T3DD4 000:786.414 - 0.026ms returns 0x00000000
T3DD4 000:787.212 JLINK_WriteMem(0x20000260, 0x1A0 Bytes, ...)
T3DD4 000:787.240   Data:  10 EB 0E 00 41 EB 11 21 4F EA 10 4E 4E EA 01 4E ...
T3DD4 000:787.280   CPU_WriteMem(416 bytes @ 0x20000260)
T3DD4 000:792.021 - 4.853ms returns 0x1A0
T3DD4 000:792.088 JLINK_WriteMem(0x20000400, 0x260 Bytes, ...)
T3DD4 000:792.110   Data:  C1 F8 08 80 C1 E9 00 20 0F B0 BD E8 F0 8F BD 1B ...
T3DD4 000:792.151   CPU_WriteMem(608 bytes @ 0x20000400)
T3DD4 000:798.601 - 6.547ms returns 0x260
T3DD4 000:798.657 JLINK_HasError()
T3DD4 000:798.682 JLINK_WriteReg(R0, 0x08001400)
T3DD4 000:798.709 - 0.034ms returns 0
T3DD4 000:798.726 JLINK_WriteReg(R1, 0x00000400)
T3DD4 000:798.744 - 0.025ms returns 0
T3DD4 000:798.761 JLINK_WriteReg(R2, 0x20000260)
T3DD4 000:798.779 - 0.025ms returns 0
T3DD4 000:798.796 JLINK_WriteReg(R3, 0x00000000)
T3DD4 000:798.814 - 0.024ms returns 0
T3DD4 000:798.830 JLINK_WriteReg(R4, 0x00000000)
T3DD4 000:798.848 - 0.024ms returns 0
T3DD4 000:798.865 JLINK_WriteReg(R5, 0x00000000)
T3DD4 000:798.883 - 0.025ms returns 0
T3DD4 000:798.899 JLINK_WriteReg(R6, 0x00000000)
T3DD4 000:798.917 - 0.024ms returns 0
T3DD4 000:798.934 JLINK_WriteReg(R7, 0x00000000)
T3DD4 000:798.951 - 0.024ms returns 0
T3DD4 000:798.968 JLINK_WriteReg(R8, 0x00000000)
T3DD4 000:798.986 - 0.024ms returns 0
T3DD4 000:799.002 JLINK_WriteReg(R9, 0x2000024C)
T3DD4 000:799.020 - 0.024ms returns 0
T3DD4 000:799.036 JLINK_WriteReg(R10, 0x00000000)
T3DD4 000:799.054 - 0.024ms returns 0
T3DD4 000:799.071 JLINK_WriteReg(R11, 0x00000000)
T3DD4 000:799.089 - 0.024ms returns 0
T3DD4 000:799.105 JLINK_WriteReg(R12, 0x00000000)
T3DD4 000:799.123 - 0.024ms returns 0
T3DD4 000:799.139 JLINK_WriteReg(R13 (SP), 0x20001000)
T3DD4 000:799.163 - 0.039ms returns 0
T3DD4 000:799.188 JLINK_WriteReg(R14, 0x20000001)
T3DD4 000:799.206 - 0.025ms returns 0
T3DD4 000:799.223 JLINK_WriteReg(R15 (PC), 0x20000150)
T3DD4 000:799.241 - 0.024ms returns 0
T3DD4 000:799.257 JLINK_WriteReg(XPSR, 0x01000000)
T3DD4 000:799.275 - 0.024ms returns 0
T3DD4 000:799.292 JLINK_WriteReg(MSP, 0x20001000)
T3DD4 000:799.310 - 0.024ms returns 0
T3DD4 000:799.326 JLINK_WriteReg(PSP, 0x20001000)
T3DD4 000:799.344 - 0.024ms returns 0
T3DD4 000:799.360 JLINK_WriteReg(CFBP, 0x00000000)
T3DD4 000:799.378 - 0.024ms returns 0
T3DD4 000:799.395 JLINK_SetBPEx(Addr = 0x20000000, Type = 0xFFFFFFF2)
T3DD4 000:799.414 - 0.026ms returns 0x0000000A
T3DD4 000:799.431 JLINK_Go()
T3DD4 000:799.463   CPU_ReadMem(4 bytes @ 0xE0001000)
T3DD4 000:806.206 - 6.802ms
T3DD4 000:806.251 JLINK_IsHalted()
T3DD4 000:807.817 - 1.585ms returns FALSE
T3DD4 000:807.910 JLINK_HasError()
T3DD4 000:811.034 JLINK_IsHalted()
T3DD4 000:812.025 - 1.000ms returns FALSE
T3DD4 000:812.041 JLINK_HasError()
T3DD4 000:814.033 JLINK_IsHalted()
T3DD4 000:815.025 - 1.002ms returns FALSE
T3DD4 000:815.041 JLINK_HasError()
T3DD4 000:817.018 JLINK_IsHalted()
T3DD4 000:823.598   CPU_ReadMem(2 bytes @ 0x20000000)
T3DD4 000:824.517 - 7.516ms returns TRUE
T3DD4 000:824.547 JLINK_ReadReg(R15 (PC))
T3DD4 000:824.563 - 0.022ms returns 0x20000000
T3DD4 000:824.576 JLINK_ClrBPEx(BPHandle = 0x0000000A)
T3DD4 000:824.588 - 0.017ms returns 0x00
T3DD4 000:824.601 JLINK_ReadReg(R0)
T3DD4 000:824.613 - 0.017ms returns 0x00000000
T3DD4 000:825.171 JLINK_WriteMem(0x20000260, 0x1A0 Bytes, ...)
T3DD4 000:825.189   Data:  B8 1B 00 F1 01 0A 4F F0 00 47 20 78 00 07 03 D4 ...
T3DD4 000:825.217   CPU_WriteMem(416 bytes @ 0x20000260)
T3DD4 000:830.044 - 4.904ms returns 0x1A0
T3DD4 000:830.085 JLINK_WriteMem(0x20000400, 0x260 Bytes, ...)
T3DD4 000:830.095   Data:  00 F4 40 00 07 DA 00 EB 80 00 4F F4 40 01 00 EB ...
T3DD4 000:830.116   CPU_WriteMem(608 bytes @ 0x20000400)
T3DD4 000:836.573 - 6.526ms returns 0x260
T3DD4 000:836.636 JLINK_HasError()
T3DD4 000:836.664 JLINK_WriteReg(R0, 0x08001800)
T3DD4 000:836.694 - 0.037ms returns 0
T3DD4 000:836.714 JLINK_WriteReg(R1, 0x00000400)
T3DD4 000:836.735 - 0.029ms returns 0
T3DD4 000:836.755 JLINK_WriteReg(R2, 0x20000260)
T3DD4 000:836.776 - 0.029ms returns 0
T3DD4 000:836.795 JLINK_WriteReg(R3, 0x00000000)
T3DD4 000:836.816 - 0.029ms returns 0
T3DD4 000:836.836 JLINK_WriteReg(R4, 0x00000000)
T3DD4 000:836.857 - 0.029ms returns 0
T3DD4 000:836.876 JLINK_WriteReg(R5, 0x00000000)
T3DD4 000:836.897 - 0.028ms returns 0
T3DD4 000:836.916 JLINK_WriteReg(R6, 0x00000000)
T3DD4 000:836.937 - 0.028ms returns 0
T3DD4 000:836.956 JLINK_WriteReg(R7, 0x00000000)
T3DD4 000:836.977 - 0.031ms returns 0
T3DD4 000:836.999 JLINK_WriteReg(R8, 0x00000000)
T3DD4 000:837.020 - 0.028ms returns 0
T3DD4 000:837.039 JLINK_WriteReg(R9, 0x2000024C)
T3DD4 000:837.060 - 0.029ms returns 0
T3DD4 000:837.080 JLINK_WriteReg(R10, 0x00000000)
T3DD4 000:837.101 - 0.028ms returns 0
T3DD4 000:837.120 JLINK_WriteReg(R11, 0x00000000)
T3DD4 000:837.141 - 0.029ms returns 0
T3DD4 000:837.160 JLINK_WriteReg(R12, 0x00000000)
T3DD4 000:837.181 - 0.029ms returns 0
T3DD4 000:837.201 JLINK_WriteReg(R13 (SP), 0x20001000)
T3DD4 000:837.223 - 0.030ms returns 0
T3DD4 000:837.242 JLINK_WriteReg(R14, 0x20000001)
T3DD4 000:837.263 - 0.029ms returns 0
T3DD4 000:837.283 JLINK_WriteReg(R15 (PC), 0x20000150)
T3DD4 000:837.304 - 0.029ms returns 0
T3DD4 000:837.324 JLINK_WriteReg(XPSR, 0x01000000)
T3DD4 000:837.345 - 0.028ms returns 0
T3DD4 000:837.383 JLINK_WriteReg(MSP, 0x20001000)
T3DD4 000:837.405 - 0.031ms returns 0
T3DD4 000:837.428 JLINK_WriteReg(PSP, 0x20001000)
T3DD4 000:837.450 - 0.039ms returns 0
T3DD4 000:837.481 JLINK_WriteReg(CFBP, 0x00000000)
T3DD4 000:837.506 - 0.034ms returns 0
T3DD4 000:837.534 JLINK_SetBPEx(Addr = 0x20000000, Type = 0xFFFFFFF2)
T3DD4 000:837.558 - 0.034ms returns 0x0000000B
T3DD4 000:837.581 JLINK_Go()
T3DD4 000:837.622   CPU_ReadMem(4 bytes @ 0xE0001000)
T3DD4 000:844.306 - 6.772ms
T3DD4 000:844.382 JLINK_IsHalted()
T3DD4 000:845.328 - 0.980ms returns FALSE
T3DD4 000:845.385 JLINK_HasError()
T3DD4 000:847.052 JLINK_IsHalted()
T3DD4 000:848.022 - 0.989ms returns FALSE
T3DD4 000:848.054 JLINK_HasError()
T3DD4 000:850.013 JLINK_IsHalted()
T3DD4 000:850.984 - 0.990ms returns FALSE
T3DD4 000:851.015 JLINK_HasError()
T3DD4 000:853.006 JLINK_IsHalted()
T3DD4 000:853.901 - 0.922ms returns FALSE
T3DD4 000:853.947 JLINK_HasError()
T3DD4 000:855.775 JLINK_IsHalted()
T3DD4 000:862.344   CPU_ReadMem(2 bytes @ 0x20000000)
T3DD4 000:863.342 - 7.588ms returns TRUE
T3DD4 000:863.378 JLINK_ReadReg(R15 (PC))
T3DD4 000:863.400 - 0.029ms returns 0x20000000
T3DD4 000:863.417 JLINK_ClrBPEx(BPHandle = 0x0000000B)
T3DD4 000:863.433 - 0.023ms returns 0x00
T3DD4 000:863.450 JLINK_ReadReg(R0)
T3DD4 000:863.466 - 0.022ms returns 0x00000000
T3DD4 000:864.190 JLINK_WriteMem(0x20000260, 0x1A0 Bytes, ...)
T3DD4 000:864.217   Data:  03 20 BD E8 F0 8F 20 6A 28 44 20 62 03 E0 D4 E9 ...
T3DD4 000:864.253   CPU_WriteMem(416 bytes @ 0x20000260)
T3DD4 000:869.079 - 4.933ms returns 0x1A0
T3DD4 000:869.143 JLINK_WriteMem(0x20000400, 0x260 Bytes, ...)
T3DD4 000:869.160   Data:  59 E0 68 1C E0 62 60 60 E0 69 40 1E A0 60 E0 68 ...
T3DD4 000:869.210   CPU_WriteMem(608 bytes @ 0x20000400)
T3DD4 000:875.717 - 6.616ms returns 0x260
T3DD4 000:875.785 JLINK_HasError()
T3DD4 000:875.815 JLINK_WriteReg(R0, 0x08001C00)
T3DD4 000:875.847 - 0.040ms returns 0
T3DD4 000:875.868 JLINK_WriteReg(R1, 0x00000400)
T3DD4 000:875.890 - 0.030ms returns 0
T3DD4 000:875.911 JLINK_WriteReg(R2, 0x20000260)
T3DD4 000:875.933 - 0.030ms returns 0
T3DD4 000:875.954 JLINK_WriteReg(R3, 0x00000000)
T3DD4 000:875.976 - 0.030ms returns 0
T3DD4 000:875.996 JLINK_WriteReg(R4, 0x00000000)
T3DD4 000:876.018 - 0.030ms returns 0
T3DD4 000:876.038 JLINK_WriteReg(R5, 0x00000000)
T3DD4 000:876.060 - 0.030ms returns 0
T3DD4 000:876.081 JLINK_WriteReg(R6, 0x00000000)
T3DD4 000:876.103 - 0.030ms returns 0
T3DD4 000:876.124 JLINK_WriteReg(R7, 0x00000000)
T3DD4 000:876.146 - 0.030ms returns 0
T3DD4 000:876.166 JLINK_WriteReg(R8, 0x00000000)
T3DD4 000:876.189 - 0.031ms returns 0
T3DD4 000:876.209 JLINK_WriteReg(R9, 0x2000024C)
T3DD4 000:876.231 - 0.030ms returns 0
T3DD4 000:876.252 JLINK_WriteReg(R10, 0x00000000)
T3DD4 000:876.274 - 0.030ms returns 0
T3DD4 000:876.294 JLINK_WriteReg(R11, 0x00000000)
T3DD4 000:876.316 - 0.030ms returns 0
T3DD4 000:876.337 JLINK_WriteReg(R12, 0x00000000)
T3DD4 000:876.359 - 0.030ms returns 0
T3DD4 000:876.381 JLINK_WriteReg(R13 (SP), 0x20001000)
T3DD4 000:876.404 - 0.034ms returns 0
T3DD4 000:876.512 JLINK_WriteReg(R14, 0x20000001)
T3DD4 000:876.539 - 0.035ms returns 0
T3DD4 000:876.558 JLINK_WriteReg(R15 (PC), 0x20000150)
T3DD4 000:876.579 - 0.031ms returns 0
T3DD4 000:876.621 JLINK_WriteReg(XPSR, 0x01000000)
T3DD4 000:876.645 - 0.048ms returns 0
T3DD4 000:876.684 JLINK_WriteReg(MSP, 0x20001000)
T3DD4 000:876.702 - 0.026ms returns 0
T3DD4 000:876.721 JLINK_WriteReg(PSP, 0x20001000)
T3DD4 000:876.738 - 0.025ms returns 0
T3DD4 000:876.757 JLINK_WriteReg(CFBP, 0x00000000)
T3DD4 000:876.774 - 0.025ms returns 0
T3DD4 000:876.793 JLINK_SetBPEx(Addr = 0x20000000, Type = 0xFFFFFFF2)
T3DD4 000:876.813 - 0.028ms returns 0x0000000C
T3DD4 000:876.832 JLINK_Go()
T3DD4 000:876.869   CPU_ReadMem(4 bytes @ 0xE0001000)
T3DD4 000:883.737 - 6.942ms
T3DD4 000:883.789 JLINK_IsHalted()
T3DD4 000:884.632 - 0.861ms returns FALSE
T3DD4 000:884.663 JLINK_HasError()
T3DD4 000:886.521 JLINK_IsHalted()
T3DD4 000:887.496 - 0.993ms returns FALSE
T3DD4 000:887.527 JLINK_HasError()
T3DD4 000:889.551 JLINK_IsHalted()
T3DD4 000:890.482 - 0.957ms returns FALSE
T3DD4 000:890.521 JLINK_HasError()
T3DD4 000:892.560 JLINK_IsHalted()
T3DD4 000:893.470 - 0.928ms returns FALSE
T3DD4 000:893.512 JLINK_HasError()
T3DD4 000:895.600 JLINK_IsHalted()
T3DD4 000:902.089   CPU_ReadMem(2 bytes @ 0x20000000)
T3DD4 000:903.059 - 7.477ms returns TRUE
T3DD4 000:903.096 JLINK_ReadReg(R15 (PC))
T3DD4 000:903.128 - 0.038ms returns 0x20000000
T3DD4 000:903.144 JLINK_ClrBPEx(BPHandle = 0x0000000C)
T3DD4 000:903.162 - 0.024ms returns 0x00
T3DD4 000:903.178 JLINK_ReadReg(R0)
T3DD4 000:903.195 - 0.023ms returns 0x00000000
T3DD4 000:903.829 JLINK_WriteMem(0x20000260, 0x1A0 Bytes, ...)
T3DD4 000:903.851   Data:  54 01 00 20 00 00 00 10 04 00 00 20 04 00 00 10 ...
T3DD4 000:903.893   CPU_WriteMem(416 bytes @ 0x20000260)
T3DD4 000:909.050 - 5.256ms returns 0x1A0
T3DD4 000:909.102 JLINK_WriteMem(0x20000400, 0x260 Bytes, ...)
T3DD4 000:909.117   Data:  8A B0 35 48 78 44 0D C8 8D E8 0D 00 32 48 78 44 ...
T3DD4 000:909.154   CPU_WriteMem(608 bytes @ 0x20000400)
T3DD4 000:915.493 - 6.441ms returns 0x260
T3DD4 000:915.568 JLINK_HasError()
T3DD4 000:915.596 JLINK_WriteReg(R0, 0x08002000)
T3DD4 000:915.632 - 0.047ms returns 0
T3DD4 000:915.657 JLINK_WriteReg(R1, 0x00000400)
T3DD4 000:915.680 - 0.031ms returns 0
T3DD4 000:915.699 JLINK_WriteReg(R2, 0x20000260)
T3DD4 000:915.716 - 0.025ms returns 0
T3DD4 000:915.735 JLINK_WriteReg(R3, 0x00000000)
T3DD4 000:915.761 - 0.037ms returns 0
T3DD4 000:915.785 JLINK_WriteReg(R4, 0x00000000)
T3DD4 000:915.806 - 0.031ms returns 0
T3DD4 000:915.829 JLINK_WriteReg(R5, 0x00000000)
T3DD4 000:915.852 - 0.033ms returns 0
T3DD4 000:915.876 JLINK_WriteReg(R6, 0x00000000)
T3DD4 000:915.901 - 0.041ms returns 0
T3DD4 000:915.929 JLINK_WriteReg(R7, 0x00000000)
T3DD4 000:915.951 - 0.032ms returns 0
T3DD4 000:915.973 JLINK_WriteReg(R8, 0x00000000)
T3DD4 000:915.994 - 0.030ms returns 0
T3DD4 000:916.015 JLINK_WriteReg(R9, 0x2000024C)
T3DD4 000:916.036 - 0.029ms returns 0
T3DD4 000:916.056 JLINK_WriteReg(R10, 0x00000000)
T3DD4 000:916.076 - 0.030ms returns 0
T3DD4 000:916.097 JLINK_WriteReg(R11, 0x00000000)
T3DD4 000:916.116 - 0.028ms returns 0
T3DD4 000:916.136 JLINK_WriteReg(R12, 0x00000000)
